
T10EC 000:085 SEGGER J-Link V4.64a Log File (0001ms, 0085ms total)
T10EC 000:085 DLL Compiled: Feb 25 2013 18:26:59 (0001ms, 0085ms total)
T10EC 000:085 Logging started @ 2016-06-08 10:57 (0001ms, 0085ms total)
T10EC 000:086 JLINK_SetWarnOutHandler(...) (0000ms, 0085ms total)
T10EC 000:086 JLINK_OpenEx(...)
Firmware: J-Link ARM V8 compiled Nov 25 2013 19:20:08
Hardware: V8.00
S/N: 799713843
Feature(s): RDI,FlashDL,FlashBP,JFlash,GDBFULL  returns O.K. (0031ms, 0116ms total)
T10EC 000:117 JLINK_SetErrorOutHandler(...) (0000ms, 0116ms total)
T10EC 000:117 JLINK_ExecCommand("ProjectFile = "D:\领头虎\程序\STM32F103（库版本）GU906 各项功能测试\MDK\JLinkSettings.ini"", ...)  returns 0x00 (0001ms, 0117ms total)
T10EC 000:124 JLINK_ExecCommand("Device = STM32F103ZE", ...)
                JLINK_ExecCommand("map ram 0x20000000 - 0x2000FFFF", ...)  returns 0x00 (0000ms, 0000ms total)
                JLINK_AddMirrorAreaEx(Addr = 0x00000000, Size = 0x00000000) (0000ms, 0000ms total)
              Device "STM32F103ZE" selected (512 KB flash, 64 KB RAM).  returns 0x00 (0010ms, 0127ms total)
T10EC 000:134 JLINK_ExecCommand("DisableConnectionTimeout", ...)  returns 0x00 (0000ms, 0127ms total)
T10EC 000:134 JLINK_GetHardwareVersion()  returns 0x13880 (0000ms, 0127ms total)
T10EC 000:134 JLINK_GetDLLVersion()  returns 46401 (0000ms, 0127ms total)
T10EC 000:134 JLINK_GetFirmwareString(...) (0000ms, 0127ms total)
T10EC 000:150 JLINK_GetDLLVersion()  returns 46401 (0000ms, 0127ms total)
T10EC 000:150 JLINK_GetCompileDateTime() (0000ms, 0127ms total)
T10EC 000:154 JLINK_GetFirmwareString(...) (0000ms, 0127ms total)
T10EC 000:158 JLINK_GetHardwareVersion()  returns 0x13880 (0000ms, 0127ms total)
T10EC 000:174 JLINK_TIF_Select(JLINKARM_TIF_SWD)  returns 0x00 (0007ms, 0134ms total)
T10EC 000:181 JLINK_SetSpeed(5000) (0002ms, 0136ms total)
T10EC 000:183 JLINK_GetId() >0x108 TIF>Found SWD-DP with ID 0x1BA01477 >0x0D TIF> >0x28 TIF> >0x0D TIF> >0x28 TIF> >0x0D TIF> >0x21 TIF> >0x0D TIF> >0x28 TIF> >0x0D TIF> >0x28 TIF> >0x0D TIF> >0x28 TIF> >0x0D TIF> >0x21 TIF> >0x0D TIF> >0x21 TIF> >0x0D TIF> >0x28 TIF> >0x0D TIF> >0x21 TIF> >0x0D TIF> >0x21 TIF> >0x108 TIF>Found SWD-DP with ID 0x1BA01477 >0x0D TIF> >0x21 TIF> >0x0D TIF> >0x28 TIF> >0x0D TIF> >0x28 TIF> >0x0D TIF> >0x21 TIF> >0x0D TIF> >0x21 TIF> >0x0D TIF> >0x28 TIF> >0x0D TIF> >0x21 TIF>
 >0x0D TIF> >0x21 TIF> >0x0D TIF> >0x21 TIF> >0x0D TIF> >0x21 TIF> >0x0D TIF> >0x21 TIF> >0x0D TIF> >0x28 TIF> >0x0D TIF> >0x28 TIF> >0x0D TIF> >0x21 TIF> >0x0D TIF> >0x21 TIF> >0x0D TIF> >0x28 TIF> >0x0D TIF> >0x21 TIF> >0x0D TIF> >0x21 TIF> >0x0D TIF> >0x28 TIF> >0x0D TIF> >0x28 TIF> >0x0D TIF> >0x28 TIF> >0x0D TIF> >0x21 TIF> >0x0D TIF> >0x21 TIF> >0x0D TIF> >0x28 TIF> >0x0D TIF> >0x28 TIF> >0x0D TIF> >0x28 TIF> >0x0D TIF> >0x21 TIF> >0x0D TIF> >0x21 TIF> >0x0D TIF> >0x21 TIF>TPIU fitted.ETM fitted.
 >0x0D TIF> >0x28 TIF> >0x0D TIF> >0x21 TIF> >0x0D TIF> >0x21 TIF> >0x0D TIF> >0x28 TIF> >0x0D TIF> >0x21 TIF> >0x0D TIF> >0x21 TIF>FPUnit: 6 code (BP) slots and 2 literal slots >0x0D TIF> >0x28 TIF> >0x0D TIF> >0x21 TIF> >0x0D TIF> >0x21 TIF> >0x0D TIF> >0x28 TIF> >0x0D TIF> >0x21 TIF> >0x0D TIF> >0x21 TIF> >0x0D TIF> >0x28 TIF> >0x0D TIF> >0x21 TIF> >0x0D TIF> >0x21 TIF> >0x0D TIF> >0x28 TIF> >0x0D TIF> >0x21 TIF> >0x0D TIF> >0x21 TIF>Found Cortex-M3 r1p1, Little endian. >0x0D TIF> >0x21 TIF>
  returns 0x1BA01477 (0149ms, 0285ms total)
T10EC 000:332 JLINK_GetDLLVersion()  returns 46401 (0000ms, 0285ms total)
T10EC 000:332 JLINK_CORE_GetFound()  returns 0x30000FF (0000ms, 0285ms total)
T10EC 000:336 JLINK_GetDebugInfo(0x100) -- Value=0xE00FF003  returns 0x00 (0000ms, 0285ms total)
T10EC 000:336 JLINK_GetDebugInfo(0x101)  returns 0xFFFFFFFF (0000ms, 0285ms total)
T10EC 000:336 JLINK_ReadMem (0xE0041FF0, 0x0010 Bytes, ...) -- CPU is running -- CPU_ReadMem(16 bytes @ 0xE0041FF0) -- Data:  0D 00 00 00 90 00 00 00 05 00 00 00 B1 00 00 00  returns 0x00 (0004ms, 0289ms total)
T10EC 000:340 JLINK_GetDebugInfo(0x102)  returns 0xFFFFFFFF (0000ms, 0289ms total)
T10EC 000:340 JLINK_GetDebugInfo(0x103)  returns 0xFFFFFFFF (0000ms, 0289ms total)
T10EC 000:340 JLINK_ReadMem (0xE0040FF0, 0x0010 Bytes, ...) -- CPU is running -- CPU_ReadMem(16 bytes @ 0xE0040FF0) -- Data:  0D 00 00 00 90 00 00 00 05 00 00 00 B1 00 00 00  returns 0x00 (0001ms, 0290ms total)
T10EC 000:341 JLINK_GetDebugInfo(0x104)  returns 0xFFFFFFFF (0000ms, 0290ms total)
T10EC 000:341 JLINK_GetDebugInfo(0x105)  returns 0xFFFFFFFF (0000ms, 0290ms total)
T10EC 000:341 JLINK_GetDebugInfo(0x106)  returns 0xFFFFFFFF (0000ms, 0290ms total)
T10EC 000:341 JLINK_GetDebugInfo(0x107)  returns 0xFFFFFFFF (0000ms, 0290ms total)
T10EC 000:341 JLINK_GetDebugInfo(0x10C)  returns 0xFFFFFFFF (0000ms, 0290ms total)
T10EC 000:341 JLINK_ReadMemU32(0xE000ED00, 0x0001 Items, ...) -- CPU is running -- CPU_ReadMem(4 bytes @ 0xE000ED00) -- Data:  31 C2 1F 41  returns 0x01 (0001ms, 0291ms total)
T10EC 000:342 JLINK_SetResetType(JLINKARM_RESET_TYPE_NORMAL)  returns JLINKARM_RESET_TYPE_NORMAL (0000ms, 0291ms total)
T10EC 000:342 JLINK_Reset() -- CPU is running -- CPU_WriteMem(4 bytes @ 0xE000EDF0) -- CPU is running -- CPU_WriteMem(4 bytes @ 0xE000EDFC) >0x35 TIF> -- CPU is running -- CPU_WriteMem(4 bytes @ 0xE000ED0C) -- CPU is running -- CPU_ReadMem(4 bytes @ 0xE000EDF0) -- CPU is running -- CPU_ReadMem(4 bytes @ 0xE000EDF0) -- CPU is running -- CPU_WriteMem(4 bytes @ 0xE000EDF0) -- CPU is running -- CPU_WriteMem(4 bytes @ 0xE000EDFC) -- CPU is running -- CPU_ReadMem(4 bytes @ 0xE000EDF0)
 -- CPU_WriteMem(4 bytes @ 0xE0002000) (0021ms, 0312ms total)
T10EC 000:364 JLINK_Halt()  returns 0x00 (0000ms, 0313ms total)
T10EC 000:364 JLINK_IsHalted()  returns TRUE (0000ms, 0313ms total)
T10EC 000:364 JLINK_ReadMemU32(0xE000EDF0, 0x0001 Items, ...) -- CPU_ReadMem(4 bytes @ 0xE000EDF0) -- Data:  03 00 03 00  returns 0x01 (0001ms, 0314ms total)
T10EC 000:365 JLINK_WriteU32(0xE000EDF0, 0xA05F0003) -- CPU_WriteMem(4 bytes @ 0xE000EDF0)  returns 0x00 (0001ms, 0315ms total)
T10EC 000:366 JLINK_WriteU32(0xE000EDFC, 0x01000000) -- CPU_WriteMem(4 bytes @ 0xE000EDFC)  returns 0x00 (0001ms, 0316ms total)
T10EC 000:383 JLINK_GetHWStatus(...)  returns 0x00 (0002ms, 0318ms total)
T10EC 000:396 JLINK_GetNumBPUnits(Type = 0xFFFFFF00)  returns 0x06 (0000ms, 0318ms total)
T10EC 000:396 JLINK_GetNumBPUnits(Type = 0xF0)  returns 0x2000 (0000ms, 0318ms total)
T10EC 000:396 JLINK_GetNumWPUnits()  returns 0x04 (0000ms, 0318ms total)
T10EC 000:406 JLINK_GetSpeed()  returns 0xFA0 (0000ms, 0318ms total)
T10EC 000:413 JLINK_ReadMemU32(0xE000E004, 0x0001 Items, ...) -- CPU_ReadMem(4 bytes @ 0xE000E004) -- Data:  01 00 00 00  returns 0x01 (0002ms, 0320ms total)
T10EC 000:415 JLINK_ReadMemU32(0xE000E004, 0x0001 Items, ...) -- CPU_ReadMem(4 bytes @ 0xE000E004) -- Data:  01 00 00 00  returns 0x01 (0001ms, 0321ms total)
T10EC 000:416 JLINK_WriteMem(0xE0001000, 0x001C Bytes, ...) -- Data:  01 00 00 00 00 00 00 00 00 00 00 00 00 00 00 00 ... -- CPU_WriteMem(28 bytes @ 0xE0001000)  returns 0x1C (0001ms, 0322ms total)
T10EC 000:417 JLINK_ReadMem (0xE0001000, 0x001C Bytes, ...) -- CPU_ReadMem(28 bytes @ 0xE0001000) -- Data:  01 00 00 40 00 00 00 00 00 00 00 00 00 00 00 00 ...  returns 0x00 (0001ms, 0323ms total)
T10EC 000:418 JLINK_Halt()  returns 0x00 (0000ms, 0323ms total)
T10EC 000:418 JLINK_IsHalted()  returns TRUE (0000ms, 0323ms total)
T10EC 000:421 JLINK_WriteMem(0x20000000, 0x0164 Bytes, ...) -- Data:  00 BE 0A E0 0D 78 2D 06 68 40 08 24 40 00 00 D3 ... -- CPU_WriteMem(356 bytes @ 0x20000000)  returns 0x164 (0004ms, 0327ms total)
T10EC 000:425 JLINK_WriteReg(R0, 0x08000000)  returns 0x00 (0000ms, 0327ms total)
T10EC 000:425 JLINK_WriteReg(R1, 0x044AA200)  returns 0x00 (0000ms, 0327ms total)
T10EC 000:425 JLINK_WriteReg(R2, 0x00000001)  returns 0x00 (0000ms, 0327ms total)
T10EC 000:425 JLINK_WriteReg(R3, 0x00000000)  returns 0x00 (0000ms, 0327ms total)
T10EC 000:425 JLINK_WriteReg(R4, 0x00000000)  returns 0x00 (0000ms, 0327ms total)
T10EC 000:425 JLINK_WriteReg(R5, 0x00000000)  returns 0x00 (0000ms, 0327ms total)
T10EC 000:425 JLINK_WriteReg(R6, 0x00000000)  returns 0x00 (0000ms, 0327ms total)
T10EC 000:425 JLINK_WriteReg(R7, 0x00000000)  returns 0x00 (0000ms, 0327ms total)
T10EC 000:425 JLINK_WriteReg(R8, 0x00000000)  returns 0x00 (0000ms, 0327ms total)
T10EC 000:425 JLINK_WriteReg(R9, 0x20000160)  returns 0x00 (0000ms, 0327ms total)
T10EC 000:425 JLINK_WriteReg(R10, 0x00000000)  returns 0x00 (0001ms, 0328ms total)
T10EC 000:426 JLINK_WriteReg(R11, 0x00000000)  returns 0x00 (0000ms, 0328ms total)
T10EC 000:426 JLINK_WriteReg(R12, 0x00000000)  returns 0x00 (0000ms, 0328ms total)
T10EC 000:426 JLINK_WriteReg(R13, 0x20001000)  returns 0x00 (0000ms, 0328ms total)
T10EC 000:426 JLINK_WriteReg(R14, 0x20000001)  returns 0x00 (0000ms, 0328ms total)
T10EC 000:426 JLINK_WriteReg(R15, 0x20000038)  returns 0x00 (0000ms, 0328ms total)
T10EC 000:426 JLINK_WriteReg(XPSR, 0x01000000)  returns 0x00 (0000ms, 0328ms total)
T10EC 000:426 JLINK_WriteReg(MSP, 0x20001000)  returns 0x00 (0000ms, 0328ms total)
T10EC 000:426 JLINK_WriteReg(PSP, 0x20001000)  returns 0x00 (0000ms, 0328ms total)
T10EC 000:426 JLINK_WriteReg(CFBP, 0x00000000)  returns 0x00 (0000ms, 0328ms total)
T10EC 000:426 JLINK_SetBPEx(Addr = 0x20000000, Type = 0xFFFFFFF2) -- CPU_ReadMem(2 bytes @ 0x20000000)  returns 0x00000001 (0001ms, 0329ms total)
T10EC 000:427 JLINK_Go() -- CPU_WriteMem(2 bytes @ 0x20000000) -- CPU_WriteMem(4 bytes @ 0xE0002008) -- CPU_WriteMem(4 bytes @ 0xE000200C) -- CPU_WriteMem(4 bytes @ 0xE0002010) -- CPU_WriteMem(4 bytes @ 0xE0002014) -- CPU_WriteMem(4 bytes @ 0xE0002018) -- CPU_WriteMem(4 bytes @ 0xE000201C) (0010ms, 0339ms total)
T10EC 000:437 JLINK_IsHalted() -- CPU_ReadMem(2 bytes @ 0x20000000)  returns TRUE (0004ms, 0343ms total)
T10EC 000:441 JLINK_ReadReg(R15)  returns 0x20000000 (0000ms, 0339ms total)
T10EC 000:441 JLINK_ClrBPEx(BPHandle = 0x00000001)  returns 0x00 (0000ms, 0339ms total)
T10EC 000:441 JLINK_ReadReg(R0)  returns 0x00000000 (0000ms, 0339ms total)
T10EC 000:442 JLINK_WriteReg(R0, 0x08000000)  returns 0x00 (0000ms, 0339ms total)
T10EC 000:442 JLINK_WriteReg(R1, 0x00000800)  returns 0x00 (0000ms, 0339ms total)
T10EC 000:442 JLINK_WriteReg(R2, 0x000000FF)  returns 0x00 (0000ms, 0339ms total)
T10EC 000:442 JLINK_WriteReg(R3, 0x00000000)  returns 0x00 (0000ms, 0339ms total)
T10EC 000:442 JLINK_WriteReg(R4, 0x00000000)  returns 0x00 (0000ms, 0339ms total)
T10EC 000:442 JLINK_WriteReg(R5, 0x00000000)  returns 0x00 (0000ms, 0339ms total)
T10EC 000:442 JLINK_WriteReg(R6, 0x00000000)  returns 0x00 (0000ms, 0339ms total)
T10EC 000:442 JLINK_WriteReg(R7, 0x00000000)  returns 0x00 (0000ms, 0339ms total)
T10EC 000:442 JLINK_WriteReg(R8, 0x00000000)  returns 0x00 (0000ms, 0339ms total)
T10EC 000:442 JLINK_WriteReg(R9, 0x20000160)  returns 0x00 (0000ms, 0339ms total)
T10EC 000:442 JLINK_WriteReg(R10, 0x00000000)  returns 0x00 (0000ms, 0339ms total)
T10EC 000:442 JLINK_WriteReg(R11, 0x00000000)  returns 0x00 (0000ms, 0339ms total)
T10EC 000:442 JLINK_WriteReg(R12, 0x00000000)  returns 0x00 (0000ms, 0339ms total)
T10EC 000:442 JLINK_WriteReg(R13, 0x20001000)  returns 0x00 (0000ms, 0339ms total)
T10EC 000:442 JLINK_WriteReg(R14, 0x20000001)  returns 0x00 (0000ms, 0339ms total)
T10EC 000:442 JLINK_WriteReg(R15, 0x20000020)  returns 0x00 (0000ms, 0339ms total)
T10EC 000:442 JLINK_WriteReg(XPSR, 0x01000000)  returns 0x00 (0000ms, 0339ms total)
T10EC 000:442 JLINK_WriteReg(MSP, 0x20001000)  returns 0x00 (0000ms, 0339ms total)
T10EC 000:442 JLINK_WriteReg(PSP, 0x20001000)  returns 0x00 (0000ms, 0339ms total)
T10EC 000:442 JLINK_WriteReg(CFBP, 0x00000000)  returns 0x00 (0000ms, 0339ms total)
T10EC 000:442 JLINK_SetBPEx(Addr = 0x20000000, Type = 0xFFFFFFF2)  returns 0x00000002 (0000ms, 0339ms total)
T10EC 000:442 JLINK_Go() (0002ms, 0341ms total)
T10EC 000:444 JLINK_IsHalted() -- CPU_ReadMem(2 bytes @ 0x20000000)  returns TRUE (0005ms, 0346ms total)
T10EC 000:449 JLINK_ReadReg(R15)  returns 0x20000000 (0000ms, 0341ms total)
T10EC 000:449 JLINK_ClrBPEx(BPHandle = 0x00000002)  returns 0x00 (0000ms, 0341ms total)
T10EC 000:449 JLINK_ReadReg(R0)  returns 0x00000001 (0000ms, 0341ms total)
T10EC 000:449 JLINK_WriteReg(R0, 0x08000000)  returns 0x00 (0000ms, 0341ms total)
T10EC 000:449 JLINK_WriteReg(R1, 0x00000800)  returns 0x00 (0000ms, 0341ms total)
T10EC 000:449 JLINK_WriteReg(R2, 0x000000FF)  returns 0x00 (0000ms, 0341ms total)
T10EC 000:449 JLINK_WriteReg(R3, 0x00000000)  returns 0x00 (0000ms, 0341ms total)
T10EC 000:449 JLINK_WriteReg(R4, 0x00000000)  returns 0x00 (0000ms, 0341ms total)
T10EC 000:449 JLINK_WriteReg(R5, 0x00000000)  returns 0x00 (0000ms, 0341ms total)
T10EC 000:449 JLINK_WriteReg(R6, 0x00000000)  returns 0x00 (0000ms, 0341ms total)
T10EC 000:449 JLINK_WriteReg(R7, 0x00000000)  returns 0x00 (0000ms, 0341ms total)
T10EC 000:449 JLINK_WriteReg(R8, 0x00000000)  returns 0x00 (0000ms, 0341ms total)
T10EC 000:449 JLINK_WriteReg(R9, 0x20000160)  returns 0x00 (0000ms, 0341ms total)
T10EC 000:449 JLINK_WriteReg(R10, 0x00000000)  returns 0x00 (0000ms, 0341ms total)
T10EC 000:449 JLINK_WriteReg(R11, 0x00000000)  returns 0x00 (0000ms, 0341ms total)
T10EC 000:449 JLINK_WriteReg(R12, 0x00000000)  returns 0x00 (0000ms, 0341ms total)
T10EC 000:449 JLINK_WriteReg(R13, 0x20001000)  returns 0x00 (0000ms, 0341ms total)
T10EC 000:449 JLINK_WriteReg(R14, 0x20000001)  returns 0x00 (0000ms, 0341ms total)
T10EC 000:449 JLINK_WriteReg(R15, 0x200000B6)  returns 0x00 (0000ms, 0341ms total)
T10EC 000:449 JLINK_WriteReg(XPSR, 0x01000000)  returns 0x00 (0000ms, 0341ms total)
T10EC 000:449 JLINK_WriteReg(MSP, 0x20001000)  returns 0x00 (0000ms, 0341ms total)
T10EC 000:449 JLINK_WriteReg(PSP, 0x20001000)  returns 0x00 (0000ms, 0341ms total)
T10EC 000:449 JLINK_WriteReg(CFBP, 0x00000000)  returns 0x00 (0000ms, 0341ms total)
T10EC 000:449 JLINK_SetBPEx(Addr = 0x20000000, Type = 0xFFFFFFF2)  returns 0x00000003 (0000ms, 0341ms total)
T10EC 000:449 JLINK_Go() (0003ms, 0344ms total)
T10EC 000:452 JLINK_IsHalted()  returns FALSE (0001ms, 0345ms total)
T10EC 000:514 JLINK_IsHalted() -- CPU_ReadMem(2 bytes @ 0x20000000)  returns TRUE (0005ms, 0349ms total)
T10EC 000:519 JLINK_ReadReg(R15)  returns 0x20000000 (0000ms, 0344ms total)
T10EC 000:519 JLINK_ClrBPEx(BPHandle = 0x00000003)  returns 0x00 (0000ms, 0344ms total)
T10EC 000:519 JLINK_ReadReg(R0)  returns 0x00000000 (0000ms, 0344ms total)
T10EC 000:520 JLINK_WriteReg(R0, 0x08000800)  returns 0x00 (0000ms, 0344ms total)
T10EC 000:520 JLINK_WriteReg(R1, 0x00000800)  returns 0x00 (0000ms, 0344ms total)
T10EC 000:520 JLINK_WriteReg(R2, 0x000000FF)  returns 0x00 (0000ms, 0344ms total)
T10EC 000:520 JLINK_WriteReg(R3, 0x00000000)  returns 0x00 (0000ms, 0344ms total)
T10EC 000:520 JLINK_WriteReg(R4, 0x00000000)  returns 0x00 (0000ms, 0344ms total)
T10EC 000:520 JLINK_WriteReg(R5, 0x00000000)  returns 0x00 (0000ms, 0344ms total)
T10EC 000:520 JLINK_WriteReg(R6, 0x00000000)  returns 0x00 (0000ms, 0344ms total)
T10EC 000:520 JLINK_WriteReg(R7, 0x00000000)  returns 0x00 (0000ms, 0344ms total)
T10EC 000:520 JLINK_WriteReg(R8, 0x00000000)  returns 0x00 (0000ms, 0344ms total)
T10EC 000:520 JLINK_WriteReg(R9, 0x20000160)  returns 0x00 (0000ms, 0344ms total)
T10EC 000:520 JLINK_WriteReg(R10, 0x00000000)  returns 0x00 (0000ms, 0344ms total)
T10EC 000:520 JLINK_WriteReg(R11, 0x00000000)  returns 0x00 (0000ms, 0344ms total)
T10EC 000:520 JLINK_WriteReg(R12, 0x00000000)  returns 0x00 (0000ms, 0344ms total)
T10EC 000:520 JLINK_WriteReg(R13, 0x20001000)  returns 0x00 (0000ms, 0344ms total)
T10EC 000:520 JLINK_WriteReg(R14, 0x20000001)  returns 0x00 (0001ms, 0345ms total)
T10EC 000:521 JLINK_WriteReg(R15, 0x20000020)  returns 0x00 (0000ms, 0345ms total)
T10EC 000:521 JLINK_WriteReg(XPSR, 0x01000000)  returns 0x00 (0000ms, 0345ms total)
T10EC 000:521 JLINK_WriteReg(MSP, 0x20001000)  returns 0x00 (0000ms, 0345ms total)
T10EC 000:521 JLINK_WriteReg(PSP, 0x20001000)  returns 0x00 (0000ms, 0345ms total)
T10EC 000:521 JLINK_WriteReg(CFBP, 0x00000000)  returns 0x00 (0000ms, 0345ms total)
T10EC 000:521 JLINK_SetBPEx(Addr = 0x20000000, Type = 0xFFFFFFF2)  returns 0x00000004 (0000ms, 0345ms total)
T10EC 000:521 JLINK_Go() (0002ms, 0347ms total)
T10EC 000:523 JLINK_IsHalted() -- CPU_ReadMem(2 bytes @ 0x20000000)  returns TRUE (0003ms, 0350ms total)
T10EC 000:526 JLINK_ReadReg(R15)  returns 0x20000000 (0001ms, 0348ms total)
T10EC 000:527 JLINK_ClrBPEx(BPHandle = 0x00000004)  returns 0x00 (0000ms, 0348ms total)
T10EC 000:527 JLINK_ReadReg(R0)  returns 0x00000001 (0000ms, 0348ms total)
T10EC 000:527 JLINK_WriteReg(R0, 0x08000800)  returns 0x00 (0000ms, 0348ms total)
T10EC 000:527 JLINK_WriteReg(R1, 0x00000800)  returns 0x00 (0000ms, 0348ms total)
T10EC 000:527 JLINK_WriteReg(R2, 0x000000FF)  returns 0x00 (0000ms, 0348ms total)
T10EC 000:527 JLINK_WriteReg(R3, 0x00000000)  returns 0x00 (0000ms, 0348ms total)
T10EC 000:527 JLINK_WriteReg(R4, 0x00000000)  returns 0x00 (0000ms, 0348ms total)
T10EC 000:527 JLINK_WriteReg(R5, 0x00000000)  returns 0x00 (0000ms, 0348ms total)
T10EC 000:527 JLINK_WriteReg(R6, 0x00000000)  returns 0x00 (0000ms, 0348ms total)
T10EC 000:527 JLINK_WriteReg(R7, 0x00000000)  returns 0x00 (0000ms, 0348ms total)
T10EC 000:527 JLINK_WriteReg(R8, 0x00000000)  returns 0x00 (0000ms, 0348ms total)
T10EC 000:527 JLINK_WriteReg(R9, 0x20000160)  returns 0x00 (0000ms, 0348ms total)
T10EC 000:527 JLINK_WriteReg(R10, 0x00000000)  returns 0x00 (0000ms, 0348ms total)
T10EC 000:527 JLINK_WriteReg(R11, 0x00000000)  returns 0x00 (0000ms, 0348ms total)
T10EC 000:527 JLINK_WriteReg(R12, 0x00000000)  returns 0x00 (0000ms, 0348ms total)
T10EC 000:527 JLINK_WriteReg(R13, 0x20001000)  returns 0x00 (0000ms, 0348ms total)
T10EC 000:527 JLINK_WriteReg(R14, 0x20000001)  returns 0x00 (0000ms, 0348ms total)
T10EC 000:527 JLINK_WriteReg(R15, 0x200000B6)  returns 0x00 (0000ms, 0348ms total)
T10EC 000:527 JLINK_WriteReg(XPSR, 0x01000000)  returns 0x00 (0000ms, 0348ms total)
T10EC 000:527 JLINK_WriteReg(MSP, 0x20001000)  returns 0x00 (0000ms, 0348ms total)
T10EC 000:527 JLINK_WriteReg(PSP, 0x20001000)  returns 0x00 (0000ms, 0348ms total)
T10EC 000:527 JLINK_WriteReg(CFBP, 0x00000000)  returns 0x00 (0000ms, 0348ms total)
T10EC 000:527 JLINK_SetBPEx(Addr = 0x20000000, Type = 0xFFFFFFF2)  returns 0x00000005 (0000ms, 0348ms total)
T10EC 000:527 JLINK_Go() (0002ms, 0350ms total)
T10EC 000:530 JLINK_IsHalted()  returns FALSE (0001ms, 0352ms total)
T10EC 000:534 JLINK_IsHalted()  returns FALSE (0001ms, 0352ms total)
T10EC 000:538 JLINK_IsHalted()  returns FALSE (0001ms, 0352ms total)
T10EC 000:541 JLINK_IsHalted()  returns FALSE (0001ms, 0352ms total)
T10EC 000:544 JLINK_IsHalted()  returns FALSE (0001ms, 0352ms total)
T10EC 000:547 JLINK_IsHalted()  returns FALSE (0001ms, 0352ms total)
T10EC 000:550 JLINK_IsHalted()  returns FALSE (0001ms, 0352ms total)
T10EC 000:553 JLINK_IsHalted() -- CPU_ReadMem(2 bytes @ 0x20000000)  returns TRUE (0003ms, 0354ms total)
T10EC 000:556 JLINK_ReadReg(R15)  returns 0x20000000 (0000ms, 0351ms total)
T10EC 000:556 JLINK_ClrBPEx(BPHandle = 0x00000005)  returns 0x00 (0000ms, 0351ms total)
T10EC 000:556 JLINK_ReadReg(R0)  returns 0x00000000 (0000ms, 0351ms total)
T10EC 000:557 JLINK_WriteReg(R0, 0x08001000)  returns 0x00 (0000ms, 0351ms total)
T10EC 000:557 JLINK_WriteReg(R1, 0x00000800)  returns 0x00 (0000ms, 0351ms total)
T10EC 000:557 JLINK_WriteReg(R2, 0x000000FF)  returns 0x00 (0000ms, 0351ms total)
T10EC 000:557 JLINK_WriteReg(R3, 0x00000000)  returns 0x00 (0000ms, 0351ms total)
T10EC 000:557 JLINK_WriteReg(R4, 0x00000000)  returns 0x00 (0000ms, 0351ms total)
T10EC 000:557 JLINK_WriteReg(R5, 0x00000000)  returns 0x00 (0000ms, 0351ms total)
T10EC 000:557 JLINK_WriteReg(R6, 0x00000000)  returns 0x00 (0000ms, 0351ms total)
T10EC 000:557 JLINK_WriteReg(R7, 0x00000000)  returns 0x00 (0000ms, 0351ms total)
T10EC 000:557 JLINK_WriteReg(R8, 0x00000000)  returns 0x00 (0000ms, 0351ms total)
T10EC 000:557 JLINK_WriteReg(R9, 0x20000160)  returns 0x00 (0000ms, 0351ms total)
T10EC 000:557 JLINK_WriteReg(R10, 0x00000000)  returns 0x00 (0000ms, 0351ms total)
T10EC 000:557 JLINK_WriteReg(R11, 0x00000000)  returns 0x00 (0000ms, 0351ms total)
T10EC 000:557 JLINK_WriteReg(R12, 0x00000000)  returns 0x00 (0000ms, 0351ms total)
T10EC 000:557 JLINK_WriteReg(R13, 0x20001000)  returns 0x00 (0000ms, 0351ms total)
T10EC 000:557 JLINK_WriteReg(R14, 0x20000001)  returns 0x00 (0000ms, 0351ms total)
T10EC 000:557 JLINK_WriteReg(R15, 0x20000020)  returns 0x00 (0000ms, 0351ms total)
T10EC 000:557 JLINK_WriteReg(XPSR, 0x01000000)  returns 0x00 (0000ms, 0351ms total)
T10EC 000:557 JLINK_WriteReg(MSP, 0x20001000)  returns 0x00 (0000ms, 0351ms total)
T10EC 000:557 JLINK_WriteReg(PSP, 0x20001000)  returns 0x00 (0000ms, 0351ms total)
T10EC 000:557 JLINK_WriteReg(CFBP, 0x00000000)  returns 0x00 (0001ms, 0352ms total)
T10EC 000:558 JLINK_SetBPEx(Addr = 0x20000000, Type = 0xFFFFFFF2)  returns 0x00000006 (0000ms, 0352ms total)
T10EC 000:558 JLINK_Go() (0002ms, 0354ms total)
T10EC 000:560 JLINK_IsHalted() -- CPU_ReadMem(2 bytes @ 0x20000000)  returns TRUE (0004ms, 0358ms total)
T10EC 000:564 JLINK_ReadReg(R15)  returns 0x20000000 (0000ms, 0354ms total)
T10EC 000:564 JLINK_ClrBPEx(BPHandle = 0x00000006)  returns 0x00 (0000ms, 0354ms total)
T10EC 000:564 JLINK_ReadReg(R0)  returns 0x00000001 (0000ms, 0354ms total)
T10EC 000:564 JLINK_WriteReg(R0, 0x08001000)  returns 0x00 (0000ms, 0354ms total)
T10EC 000:564 JLINK_WriteReg(R1, 0x00000800)  returns 0x00 (0000ms, 0354ms total)
T10EC 000:565 JLINK_WriteReg(R2, 0x000000FF)  returns 0x00 (0000ms, 0355ms total)
T10EC 000:565 JLINK_WriteReg(R3, 0x00000000)  returns 0x00 (0000ms, 0355ms total)
T10EC 000:565 JLINK_WriteReg(R4, 0x00000000)  returns 0x00 (0000ms, 0355ms total)
T10EC 000:565 JLINK_WriteReg(R5, 0x00000000)  returns 0x00 (0000ms, 0355ms total)
T10EC 000:565 JLINK_WriteReg(R6, 0x00000000)  returns 0x00 (0000ms, 0355ms total)
T10EC 000:565 JLINK_WriteReg(R7, 0x00000000)  returns 0x00 (0000ms, 0355ms total)
T10EC 000:565 JLINK_WriteReg(R8, 0x00000000)  returns 0x00 (0000ms, 0355ms total)
T10EC 000:565 JLINK_WriteReg(R9, 0x20000160)  returns 0x00 (0000ms, 0355ms total)
T10EC 000:565 JLINK_WriteReg(R10, 0x00000000)  returns 0x00 (0000ms, 0355ms total)
T10EC 000:565 JLINK_WriteReg(R11, 0x00000000)  returns 0x00 (0000ms, 0355ms total)
T10EC 000:565 JLINK_WriteReg(R12, 0x00000000)  returns 0x00 (0000ms, 0355ms total)
T10EC 000:565 JLINK_WriteReg(R13, 0x20001000)  returns 0x00 (0000ms, 0355ms total)
T10EC 000:565 JLINK_WriteReg(R14, 0x20000001)  returns 0x00 (0000ms, 0355ms total)
T10EC 000:565 JLINK_WriteReg(R15, 0x200000B6)  returns 0x00 (0000ms, 0355ms total)
T10EC 000:565 JLINK_WriteReg(XPSR, 0x01000000)  returns 0x00 (0000ms, 0355ms total)
T10EC 000:565 JLINK_WriteReg(MSP, 0x20001000)  returns 0x00 (0000ms, 0355ms total)
T10EC 000:565 JLINK_WriteReg(PSP, 0x20001000)  returns 0x00 (0000ms, 0355ms total)
T10EC 000:565 JLINK_WriteReg(CFBP, 0x00000000)  returns 0x00 (0000ms, 0355ms total)
T10EC 000:565 JLINK_SetBPEx(Addr = 0x20000000, Type = 0xFFFFFFF2)  returns 0x00000007 (0000ms, 0355ms total)
T10EC 000:565 JLINK_Go() (0003ms, 0358ms total)
T10EC 000:568 JLINK_IsHalted()  returns FALSE (0000ms, 0358ms total)
T10EC 000:582 JLINK_IsHalted()  returns FALSE (0001ms, 0359ms total)
T10EC 000:585 JLINK_IsHalted()  returns FALSE (0001ms, 0359ms total)
T10EC 000:588 JLINK_IsHalted()  returns FALSE (0001ms, 0359ms total)
T10EC 000:592 JLINK_IsHalted() -- CPU_ReadMem(2 bytes @ 0x20000000)  returns TRUE (0004ms, 0362ms total)
T10EC 000:596 JLINK_ReadReg(R15)  returns 0x20000000 (0000ms, 0358ms total)
T10EC 000:596 JLINK_ClrBPEx(BPHandle = 0x00000007)  returns 0x00 (0000ms, 0358ms total)
T10EC 000:596 JLINK_ReadReg(R0)  returns 0x00000000 (0000ms, 0358ms total)
T10EC 000:597 JLINK_WriteReg(R0, 0x08001800)  returns 0x00 (0000ms, 0358ms total)
T10EC 000:597 JLINK_WriteReg(R1, 0x00000800)  returns 0x00 (0000ms, 0358ms total)
T10EC 000:597 JLINK_WriteReg(R2, 0x000000FF)  returns 0x00 (0000ms, 0358ms total)
T10EC 000:597 JLINK_WriteReg(R3, 0x00000000)  returns 0x00 (0000ms, 0358ms total)
T10EC 000:597 JLINK_WriteReg(R4, 0x00000000)  returns 0x00 (0000ms, 0358ms total)
T10EC 000:597 JLINK_WriteReg(R5, 0x00000000)  returns 0x00 (0000ms, 0358ms total)
T10EC 000:597 JLINK_WriteReg(R6, 0x00000000)  returns 0x00 (0000ms, 0358ms total)
T10EC 000:597 JLINK_WriteReg(R7, 0x00000000)  returns 0x00 (0000ms, 0358ms total)
T10EC 000:597 JLINK_WriteReg(R8, 0x00000000)  returns 0x00 (0000ms, 0358ms total)
T10EC 000:597 JLINK_WriteReg(R9, 0x20000160)  returns 0x00 (0000ms, 0358ms total)
T10EC 000:597 JLINK_WriteReg(R10, 0x00000000)  returns 0x00 (0000ms, 0358ms total)
T10EC 000:597 JLINK_WriteReg(R11, 0x00000000)  returns 0x00 (0000ms, 0358ms total)
T10EC 000:597 JLINK_WriteReg(R12, 0x00000000)  returns 0x00 (0000ms, 0358ms total)
T10EC 000:597 JLINK_WriteReg(R13, 0x20001000)  returns 0x00 (0000ms, 0358ms total)
T10EC 000:597 JLINK_WriteReg(R14, 0x20000001)  returns 0x00 (0000ms, 0358ms total)
T10EC 000:597 JLINK_WriteReg(R15, 0x20000020)  returns 0x00 (0000ms, 0358ms total)
T10EC 000:597 JLINK_WriteReg(XPSR, 0x01000000)  returns 0x00 (0000ms, 0358ms total)
T10EC 000:597 JLINK_WriteReg(MSP, 0x20001000)  returns 0x00 (0000ms, 0358ms total)
T10EC 000:597 JLINK_WriteReg(PSP, 0x20001000)  returns 0x00 (0000ms, 0358ms total)
T10EC 000:597 JLINK_WriteReg(CFBP, 0x00000000)  returns 0x00 (0000ms, 0358ms total)
T10EC 000:597 JLINK_SetBPEx(Addr = 0x20000000, Type = 0xFFFFFFF2)  returns 0x00000008 (0000ms, 0358ms total)
T10EC 000:597 JLINK_Go() (0003ms, 0361ms total)
T10EC 000:600 JLINK_IsHalted() -- CPU_ReadMem(2 bytes @ 0x20000000)  returns TRUE (0004ms, 0365ms total)
T10EC 000:604 JLINK_ReadReg(R15)  returns 0x20000000 (0000ms, 0361ms total)
T10EC 000:604 JLINK_ClrBPEx(BPHandle = 0x00000008)  returns 0x00 (0000ms, 0361ms total)
T10EC 000:604 JLINK_ReadReg(R0)  returns 0x00000001 (0000ms, 0361ms total)
T10EC 000:604 JLINK_WriteReg(R0, 0x08001800)  returns 0x00 (0000ms, 0361ms total)
T10EC 000:604 JLINK_WriteReg(R1, 0x00000800)  returns 0x00 (0000ms, 0361ms total)
T10EC 000:604 JLINK_WriteReg(R2, 0x000000FF)  returns 0x00 (0001ms, 0362ms total)
T10EC 000:605 JLINK_WriteReg(R3, 0x00000000)  returns 0x00 (0000ms, 0362ms total)
T10EC 000:605 JLINK_WriteReg(R4, 0x00000000)  returns 0x00 (0000ms, 0362ms total)
T10EC 000:605 JLINK_WriteReg(R5, 0x00000000)  returns 0x00 (0000ms, 0362ms total)
T10EC 000:605 JLINK_WriteReg(R6, 0x00000000)  returns 0x00 (0000ms, 0362ms total)
T10EC 000:605 JLINK_WriteReg(R7, 0x00000000)  returns 0x00 (0000ms, 0362ms total)
T10EC 000:605 JLINK_WriteReg(R8, 0x00000000)  returns 0x00 (0000ms, 0362ms total)
T10EC 000:605 JLINK_WriteReg(R9, 0x20000160)  returns 0x00 (0000ms, 0362ms total)
T10EC 000:605 JLINK_WriteReg(R10, 0x00000000)  returns 0x00 (0000ms, 0362ms total)
T10EC 000:605 JLINK_WriteReg(R11, 0x00000000)  returns 0x00 (0000ms, 0362ms total)
T10EC 000:605 JLINK_WriteReg(R12, 0x00000000)  returns 0x00 (0000ms, 0362ms total)
T10EC 000:605 JLINK_WriteReg(R13, 0x20001000)  returns 0x00 (0000ms, 0362ms total)
T10EC 000:605 JLINK_WriteReg(R14, 0x20000001)  returns 0x00 (0000ms, 0362ms total)
T10EC 000:605 JLINK_WriteReg(R15, 0x200000B6)  returns 0x00 (0000ms, 0362ms total)
T10EC 000:605 JLINK_WriteReg(XPSR, 0x01000000)  returns 0x00 (0000ms, 0362ms total)
T10EC 000:605 JLINK_WriteReg(MSP, 0x20001000)  returns 0x00 (0000ms, 0362ms total)
T10EC 000:605 JLINK_WriteReg(PSP, 0x20001000)  returns 0x00 (0000ms, 0362ms total)
T10EC 000:605 JLINK_WriteReg(CFBP, 0x00000000)  returns 0x00 (0000ms, 0362ms total)
T10EC 000:605 JLINK_SetBPEx(Addr = 0x20000000, Type = 0xFFFFFFF2)  returns 0x00000009 (0000ms, 0362ms total)
T10EC 000:605 JLINK_Go() (0002ms, 0364ms total)
T10EC 000:607 JLINK_IsHalted()  returns FALSE (0001ms, 0365ms total)
T10EC 000:611 JLINK_IsHalted()  returns FALSE (0000ms, 0364ms total)
T10EC 000:614 JLINK_IsHalted()  returns FALSE (0001ms, 0365ms total)
T10EC 000:620 JLINK_IsHalted()  returns FALSE (0001ms, 0365ms total)
T10EC 000:623 JLINK_IsHalted()  returns FALSE (0001ms, 0365ms total)
T10EC 000:626 JLINK_IsHalted()  returns FALSE (0001ms, 0365ms total)
T10EC 000:629 JLINK_IsHalted() -- CPU_ReadMem(2 bytes @ 0x20000000)  returns TRUE (0004ms, 0368ms total)
T10EC 000:633 JLINK_ReadReg(R15)  returns 0x20000000 (0000ms, 0364ms total)
T10EC 000:633 JLINK_ClrBPEx(BPHandle = 0x00000009)  returns 0x00 (0000ms, 0364ms total)
T10EC 000:633 JLINK_ReadReg(R0)  returns 0x00000000 (0000ms, 0364ms total)
T10EC 000:634 JLINK_WriteReg(R0, 0x08002000)  returns 0x00 (0000ms, 0364ms total)
T10EC 000:634 JLINK_WriteReg(R1, 0x00000800)  returns 0x00 (0000ms, 0364ms total)
T10EC 000:634 JLINK_WriteReg(R2, 0x000000FF)  returns 0x00 (0000ms, 0364ms total)
T10EC 000:634 JLINK_WriteReg(R3, 0x00000000)  returns 0x00 (0000ms, 0364ms total)
T10EC 000:634 JLINK_WriteReg(R4, 0x00000000)  returns 0x00 (0000ms, 0364ms total)
T10EC 000:634 JLINK_WriteReg(R5, 0x00000000)  returns 0x00 (0000ms, 0364ms total)
T10EC 000:634 JLINK_WriteReg(R6, 0x00000000)  returns 0x00 (0000ms, 0364ms total)
T10EC 000:634 JLINK_WriteReg(R7, 0x00000000)  returns 0x00 (0000ms, 0364ms total)
T10EC 000:634 JLINK_WriteReg(R8, 0x00000000)  returns 0x00 (0000ms, 0364ms total)
T10EC 000:634 JLINK_WriteReg(R9, 0x20000160)  returns 0x00 (0000ms, 0364ms total)
T10EC 000:634 JLINK_WriteReg(R10, 0x00000000)  returns 0x00 (0000ms, 0364ms total)
T10EC 000:634 JLINK_WriteReg(R11, 0x00000000)  returns 0x00 (0000ms, 0364ms total)
T10EC 000:634 JLINK_WriteReg(R12, 0x00000000)  returns 0x00 (0000ms, 0364ms total)
T10EC 000:634 JLINK_WriteReg(R13, 0x20001000)  returns 0x00 (0000ms, 0364ms total)
T10EC 000:634 JLINK_WriteReg(R14, 0x20000001)  returns 0x00 (0000ms, 0364ms total)
T10EC 000:634 JLINK_WriteReg(R15, 0x20000020)  returns 0x00 (0000ms, 0364ms total)
T10EC 000:634 JLINK_WriteReg(XPSR, 0x01000000)  returns 0x00 (0000ms, 0364ms total)
T10EC 000:634 JLINK_WriteReg(MSP, 0x20001000)  returns 0x00 (0000ms, 0364ms total)
T10EC 000:634 JLINK_WriteReg(PSP, 0x20001000)  returns 0x00 (0000ms, 0364ms total)
T10EC 000:634 JLINK_WriteReg(CFBP, 0x00000000)  returns 0x00 (0000ms, 0364ms total)
T10EC 000:634 JLINK_SetBPEx(Addr = 0x20000000, Type = 0xFFFFFFF2)  returns 0x0000000A (0000ms, 0364ms total)
T10EC 000:634 JLINK_Go() (0003ms, 0367ms total)
T10EC 000:637 JLINK_IsHalted() -- CPU_ReadMem(2 bytes @ 0x20000000)  returns TRUE (0004ms, 0371ms total)
T10EC 000:641 JLINK_ReadReg(R15)  returns 0x20000000 (0000ms, 0367ms total)
T10EC 000:641 JLINK_ClrBPEx(BPHandle = 0x0000000A)  returns 0x00 (0000ms, 0367ms total)
T10EC 000:641 JLINK_ReadReg(R0)  returns 0x00000001 (0000ms, 0367ms total)
T10EC 000:641 JLINK_WriteReg(R0, 0x08002000)  returns 0x00 (0000ms, 0367ms total)
T10EC 000:641 JLINK_WriteReg(R1, 0x00000800)  returns 0x00 (0000ms, 0367ms total)
T10EC 000:641 JLINK_WriteReg(R2, 0x000000FF)  returns 0x00 (0000ms, 0367ms total)
T10EC 000:641 JLINK_WriteReg(R3, 0x00000000)  returns 0x00 (0000ms, 0367ms total)
T10EC 000:641 JLINK_WriteReg(R4, 0x00000000)  returns 0x00 (0000ms, 0367ms total)
T10EC 000:641 JLINK_WriteReg(R5, 0x00000000)  returns 0x00 (0000ms, 0367ms total)
T10EC 000:642 JLINK_WriteReg(R6, 0x00000000)  returns 0x00 (0000ms, 0368ms total)
T10EC 000:642 JLINK_WriteReg(R7, 0x00000000)  returns 0x00 (0000ms, 0368ms total)
T10EC 000:642 JLINK_WriteReg(R8, 0x00000000)  returns 0x00 (0000ms, 0368ms total)
T10EC 000:642 JLINK_WriteReg(R9, 0x20000160)  returns 0x00 (0000ms, 0368ms total)
T10EC 000:642 JLINK_WriteReg(R10, 0x00000000)  returns 0x00 (0000ms, 0368ms total)
T10EC 000:642 JLINK_WriteReg(R11, 0x00000000)  returns 0x00 (0000ms, 0368ms total)
T10EC 000:642 JLINK_WriteReg(R12, 0x00000000)  returns 0x00 (0000ms, 0368ms total)
T10EC 000:642 JLINK_WriteReg(R13, 0x20001000)  returns 0x00 (0000ms, 0368ms total)
T10EC 000:642 JLINK_WriteReg(R14, 0x20000001)  returns 0x00 (0000ms, 0368ms total)
T10EC 000:642 JLINK_WriteReg(R15, 0x200000B6)  returns 0x00 (0000ms, 0368ms total)
T10EC 000:642 JLINK_WriteReg(XPSR, 0x01000000)  returns 0x00 (0000ms, 0368ms total)
T10EC 000:642 JLINK_WriteReg(MSP, 0x20001000)  returns 0x00 (0000ms, 0368ms total)
T10EC 000:642 JLINK_WriteReg(PSP, 0x20001000)  returns 0x00 (0000ms, 0368ms total)
T10EC 000:642 JLINK_WriteReg(CFBP, 0x00000000)  returns 0x00 (0000ms, 0368ms total)
T10EC 000:642 JLINK_SetBPEx(Addr = 0x20000000, Type = 0xFFFFFFF2)  returns 0x0000000B (0000ms, 0368ms total)
T10EC 000:642 JLINK_Go() (0002ms, 0370ms total)
T10EC 000:644 JLINK_IsHalted()  returns FALSE (0001ms, 0371ms total)
T10EC 000:667 JLINK_IsHalted() -- CPU_ReadMem(2 bytes @ 0x20000000)  returns TRUE (0004ms, 0374ms total)
T10EC 000:671 JLINK_ReadReg(R15)  returns 0x20000000 (0000ms, 0370ms total)
T10EC 000:671 JLINK_ClrBPEx(BPHandle = 0x0000000B)  returns 0x00 (0000ms, 0370ms total)
T10EC 000:671 JLINK_ReadReg(R0)  returns 0x00000000 (0000ms, 0370ms total)
T10EC 000:672 JLINK_WriteReg(R0, 0x08002800)  returns 0x00 (0000ms, 0370ms total)
T10EC 000:672 JLINK_WriteReg(R1, 0x00000800)  returns 0x00 (0000ms, 0370ms total)
T10EC 000:672 JLINK_WriteReg(R2, 0x000000FF)  returns 0x00 (0000ms, 0370ms total)
T10EC 000:672 JLINK_WriteReg(R3, 0x00000000)  returns 0x00 (0000ms, 0370ms total)
T10EC 000:672 JLINK_WriteReg(R4, 0x00000000)  returns 0x00 (0000ms, 0370ms total)
T10EC 000:672 JLINK_WriteReg(R5, 0x00000000)  returns 0x00 (0000ms, 0370ms total)
T10EC 000:672 JLINK_WriteReg(R6, 0x00000000)  returns 0x00 (0000ms, 0370ms total)
T10EC 000:672 JLINK_WriteReg(R7, 0x00000000)  returns 0x00 (0000ms, 0370ms total)
T10EC 000:672 JLINK_WriteReg(R8, 0x00000000)  returns 0x00 (0000ms, 0370ms total)
T10EC 000:672 JLINK_WriteReg(R9, 0x20000160)  returns 0x00 (0000ms, 0370ms total)
T10EC 000:672 JLINK_WriteReg(R10, 0x00000000)  returns 0x00 (0000ms, 0370ms total)
T10EC 000:672 JLINK_WriteReg(R11, 0x00000000)  returns 0x00 (0000ms, 0370ms total)
T10EC 000:672 JLINK_WriteReg(R12, 0x00000000)  returns 0x00 (0000ms, 0370ms total)
T10EC 000:672 JLINK_WriteReg(R13, 0x20001000)  returns 0x00 (0000ms, 0370ms total)
T10EC 000:672 JLINK_WriteReg(R14, 0x20000001)  returns 0x00 (0000ms, 0370ms total)
T10EC 000:672 JLINK_WriteReg(R15, 0x20000020)  returns 0x00 (0000ms, 0370ms total)
T10EC 000:672 JLINK_WriteReg(XPSR, 0x01000000)  returns 0x00 (0000ms, 0370ms total)
T10EC 000:672 JLINK_WriteReg(MSP, 0x20001000)  returns 0x00 (0000ms, 0370ms total)
T10EC 000:672 JLINK_WriteReg(PSP, 0x20001000)  returns 0x00 (0000ms, 0370ms total)
T10EC 000:672 JLINK_WriteReg(CFBP, 0x00000000)  returns 0x00 (0000ms, 0370ms total)
T10EC 000:672 JLINK_SetBPEx(Addr = 0x20000000, Type = 0xFFFFFFF2)  returns 0x0000000C (0000ms, 0370ms total)
T10EC 000:672 JLINK_Go() (0003ms, 0373ms total)
T10EC 000:675 JLINK_IsHalted() -- CPU_ReadMem(2 bytes @ 0x20000000)  returns TRUE (0004ms, 0377ms total)
T10EC 000:679 JLINK_ReadReg(R15)  returns 0x20000000 (0000ms, 0373ms total)
T10EC 000:679 JLINK_ClrBPEx(BPHandle = 0x0000000C)  returns 0x00 (0000ms, 0373ms total)
T10EC 000:679 JLINK_ReadReg(R0)  returns 0x00000001 (0000ms, 0373ms total)
T10EC 000:679 JLINK_WriteReg(R0, 0x08002800)  returns 0x00 (0000ms, 0373ms total)
T10EC 000:679 JLINK_WriteReg(R1, 0x00000800)  returns 0x00 (0000ms, 0373ms total)
T10EC 000:679 JLINK_WriteReg(R2, 0x000000FF)  returns 0x00 (0000ms, 0373ms total)
T10EC 000:679 JLINK_WriteReg(R3, 0x00000000)  returns 0x00 (0000ms, 0373ms total)
T10EC 000:679 JLINK_WriteReg(R4, 0x00000000)  returns 0x00 (0000ms, 0373ms total)
T10EC 000:679 JLINK_WriteReg(R5, 0x00000000)  returns 0x00 (0000ms, 0373ms total)
T10EC 000:679 JLINK_WriteReg(R6, 0x00000000)  returns 0x00 (0000ms, 0373ms total)
T10EC 000:679 JLINK_WriteReg(R7, 0x00000000)  returns 0x00 (0000ms, 0373ms total)
T10EC 000:679 JLINK_WriteReg(R8, 0x00000000)  returns 0x00 (0000ms, 0373ms total)
T10EC 000:680 JLINK_WriteReg(R9, 0x20000160)  returns 0x00 (0000ms, 0374ms total)
T10EC 000:680 JLINK_WriteReg(R10, 0x00000000)  returns 0x00 (0000ms, 0374ms total)
T10EC 000:680 JLINK_WriteReg(R11, 0x00000000)  returns 0x00 (0000ms, 0374ms total)
T10EC 000:680 JLINK_WriteReg(R12, 0x00000000)  returns 0x00 (0000ms, 0374ms total)
T10EC 000:680 JLINK_WriteReg(R13, 0x20001000)  returns 0x00 (0000ms, 0374ms total)
T10EC 000:680 JLINK_WriteReg(R14, 0x20000001)  returns 0x00 (0000ms, 0374ms total)
T10EC 000:680 JLINK_WriteReg(R15, 0x200000B6)  returns 0x00 (0000ms, 0374ms total)
T10EC 000:680 JLINK_WriteReg(XPSR, 0x01000000)  returns 0x00 (0000ms, 0374ms total)
T10EC 000:680 JLINK_WriteReg(MSP, 0x20001000)  returns 0x00 (0000ms, 0374ms total)
T10EC 000:680 JLINK_WriteReg(PSP, 0x20001000)  returns 0x00 (0000ms, 0374ms total)
T10EC 000:680 JLINK_WriteReg(CFBP, 0x00000000)  returns 0x00 (0000ms, 0374ms total)
T10EC 000:680 JLINK_SetBPEx(Addr = 0x20000000, Type = 0xFFFFFFF2)  returns 0x0000000D (0000ms, 0374ms total)
T10EC 000:680 JLINK_Go() (0002ms, 0376ms total)
T10EC 000:682 JLINK_IsHalted()  returns FALSE (0001ms, 0377ms total)
T10EC 000:701 JLINK_IsHalted()  returns FALSE (0001ms, 0377ms total)
T10EC 000:704 JLINK_IsHalted() -- CPU_ReadMem(2 bytes @ 0x20000000)  returns TRUE (0007ms, 0383ms total)
T10EC 000:711 JLINK_ReadReg(R15)  returns 0x20000000 (0000ms, 0376ms total)
T10EC 000:711 JLINK_ClrBPEx(BPHandle = 0x0000000D)  returns 0x00 (0000ms, 0376ms total)
T10EC 000:711 JLINK_ReadReg(R0)  returns 0x00000000 (0000ms, 0376ms total)
T10EC 000:712 JLINK_WriteReg(R0, 0x08003000)  returns 0x00 (0000ms, 0376ms total)
T10EC 000:712 JLINK_WriteReg(R1, 0x00000800)  returns 0x00 (0000ms, 0376ms total)
T10EC 000:712 JLINK_WriteReg(R2, 0x000000FF)  returns 0x00 (0000ms, 0376ms total)
T10EC 000:712 JLINK_WriteReg(R3, 0x00000000)  returns 0x00 (0000ms, 0376ms total)
T10EC 000:712 JLINK_WriteReg(R4, 0x00000000)  returns 0x00 (0000ms, 0376ms total)
T10EC 000:712 JLINK_WriteReg(R5, 0x00000000)  returns 0x00 (0000ms, 0376ms total)
T10EC 000:712 JLINK_WriteReg(R6, 0x00000000)  returns 0x00 (0000ms, 0376ms total)
T10EC 000:712 JLINK_WriteReg(R7, 0x00000000)  returns 0x00 (0000ms, 0376ms total)
T10EC 000:712 JLINK_WriteReg(R8, 0x00000000)  returns 0x00 (0000ms, 0376ms total)
T10EC 000:712 JLINK_WriteReg(R9, 0x20000160)  returns 0x00 (0000ms, 0376ms total)
T10EC 000:712 JLINK_WriteReg(R10, 0x00000000)  returns 0x00 (0000ms, 0376ms total)
T10EC 000:712 JLINK_WriteReg(R11, 0x00000000)  returns 0x00 (0000ms, 0376ms total)
T10EC 000:712 JLINK_WriteReg(R12, 0x00000000)  returns 0x00 (0000ms, 0376ms total)
T10EC 000:712 JLINK_WriteReg(R13, 0x20001000)  returns 0x00 (0000ms, 0376ms total)
T10EC 000:712 JLINK_WriteReg(R14, 0x20000001)  returns 0x00 (0000ms, 0376ms total)
T10EC 000:712 JLINK_WriteReg(R15, 0x20000020)  returns 0x00 (0000ms, 0376ms total)
T10EC 000:712 JLINK_WriteReg(XPSR, 0x01000000)  returns 0x00 (0000ms, 0376ms total)
T10EC 000:712 JLINK_WriteReg(MSP, 0x20001000)  returns 0x00 (0000ms, 0376ms total)
T10EC 000:712 JLINK_WriteReg(PSP, 0x20001000)  returns 0x00 (0000ms, 0376ms total)
T10EC 000:712 JLINK_WriteReg(CFBP, 0x00000000)  returns 0x00 (0000ms, 0376ms total)
T10EC 000:712 JLINK_SetBPEx(Addr = 0x20000000, Type = 0xFFFFFFF2)  returns 0x0000000E (0000ms, 0376ms total)
T10EC 000:712 JLINK_Go() (0003ms, 0379ms total)
T10EC 000:715 JLINK_IsHalted() -- CPU_ReadMem(2 bytes @ 0x20000000)  returns TRUE (0005ms, 0384ms total)
T10EC 000:720 JLINK_ReadReg(R15)  returns 0x20000000 (0000ms, 0379ms total)
T10EC 000:720 JLINK_ClrBPEx(BPHandle = 0x0000000E)  returns 0x00 (0000ms, 0379ms total)
T10EC 000:720 JLINK_ReadReg(R0)  returns 0x00000001 (0000ms, 0379ms total)
T10EC 000:720 JLINK_WriteReg(R0, 0x08003000)  returns 0x00 (0000ms, 0379ms total)
T10EC 000:720 JLINK_WriteReg(R1, 0x00000800)  returns 0x00 (0000ms, 0379ms total)
T10EC 000:720 JLINK_WriteReg(R2, 0x000000FF)  returns 0x00 (0000ms, 0379ms total)
T10EC 000:720 JLINK_WriteReg(R3, 0x00000000)  returns 0x00 (0000ms, 0379ms total)
T10EC 000:720 JLINK_WriteReg(R4, 0x00000000)  returns 0x00 (0000ms, 0379ms total)
T10EC 000:720 JLINK_WriteReg(R5, 0x00000000)  returns 0x00 (0000ms, 0379ms total)
T10EC 000:720 JLINK_WriteReg(R6, 0x00000000)  returns 0x00 (0000ms, 0379ms total)
T10EC 000:720 JLINK_WriteReg(R7, 0x00000000)  returns 0x00 (0001ms, 0380ms total)
T10EC 000:721 JLINK_WriteReg(R8, 0x00000000)  returns 0x00 (0000ms, 0380ms total)
T10EC 000:721 JLINK_WriteReg(R9, 0x20000160)  returns 0x00 (0000ms, 0380ms total)
T10EC 000:721 JLINK_WriteReg(R10, 0x00000000)  returns 0x00 (0000ms, 0380ms total)
T10EC 000:721 JLINK_WriteReg(R11, 0x00000000)  returns 0x00 (0000ms, 0380ms total)
T10EC 000:721 JLINK_WriteReg(R12, 0x00000000)  returns 0x00 (0000ms, 0380ms total)
T10EC 000:721 JLINK_WriteReg(R13, 0x20001000)  returns 0x00 (0000ms, 0380ms total)
T10EC 000:721 JLINK_WriteReg(R14, 0x20000001)  returns 0x00 (0000ms, 0380ms total)
T10EC 000:721 JLINK_WriteReg(R15, 0x200000B6)  returns 0x00 (0000ms, 0380ms total)
T10EC 000:721 JLINK_WriteReg(XPSR, 0x01000000)  returns 0x00 (0000ms, 0380ms total)
T10EC 000:721 JLINK_WriteReg(MSP, 0x20001000)  returns 0x00 (0000ms, 0380ms total)
T10EC 000:721 JLINK_WriteReg(PSP, 0x20001000)  returns 0x00 (0000ms, 0380ms total)
T10EC 000:721 JLINK_WriteReg(CFBP, 0x00000000)  returns 0x00 (0000ms, 0380ms total)
T10EC 000:721 JLINK_SetBPEx(Addr = 0x20000000, Type = 0xFFFFFFF2)  returns 0x0000000F (0000ms, 0380ms total)
T10EC 000:721 JLINK_Go() (0002ms, 0382ms total)
T10EC 000:723 JLINK_IsHalted()  returns FALSE (0001ms, 0383ms total)
T10EC 000:734 JLINK_IsHalted()  returns FALSE (0000ms, 0382ms total)
T10EC 000:736 JLINK_IsHalted()  returns FALSE (0000ms, 0382ms total)
T10EC 000:738 JLINK_IsHalted()  returns FALSE (0001ms, 0383ms total)
T10EC 000:741 JLINK_IsHalted()  returns FALSE (0001ms, 0383ms total)
T10EC 000:744 JLINK_IsHalted() -- CPU_ReadMem(2 bytes @ 0x20000000)  returns TRUE (0005ms, 0387ms total)
T10EC 000:749 JLINK_ReadReg(R15)  returns 0x20000000 (0000ms, 0382ms total)
T10EC 000:749 JLINK_ClrBPEx(BPHandle = 0x0000000F)  returns 0x00 (0000ms, 0382ms total)
T10EC 000:749 JLINK_ReadReg(R0)  returns 0x00000000 (0000ms, 0382ms total)
T10EC 000:749 JLINK_WriteReg(R0, 0x00000001)  returns 0x00 (0000ms, 0382ms total)
T10EC 000:749 JLINK_WriteReg(R1, 0x00000800)  returns 0x00 (0000ms, 0382ms total)
T10EC 000:750 JLINK_WriteReg(R2, 0x000000FF)  returns 0x00 (0000ms, 0383ms total)
T10EC 000:750 JLINK_WriteReg(R3, 0x00000000)  returns 0x00 (0000ms, 0383ms total)
T10EC 000:750 JLINK_WriteReg(R4, 0x00000000)  returns 0x00 (0000ms, 0383ms total)
T10EC 000:750 JLINK_WriteReg(R5, 0x00000000)  returns 0x00 (0000ms, 0383ms total)
T10EC 000:750 JLINK_WriteReg(R6, 0x00000000)  returns 0x00 (0000ms, 0383ms total)
T10EC 000:750 JLINK_WriteReg(R7, 0x00000000)  returns 0x00 (0000ms, 0383ms total)
T10EC 000:750 JLINK_WriteReg(R8, 0x00000000)  returns 0x00 (0000ms, 0383ms total)
T10EC 000:750 JLINK_WriteReg(R9, 0x20000160)  returns 0x00 (0000ms, 0383ms total)
T10EC 000:750 JLINK_WriteReg(R10, 0x00000000)  returns 0x00 (0000ms, 0383ms total)
T10EC 000:750 JLINK_WriteReg(R11, 0x00000000)  returns 0x00 (0000ms, 0383ms total)
T10EC 000:750 JLINK_WriteReg(R12, 0x00000000)  returns 0x00 (0000ms, 0383ms total)
T10EC 000:750 JLINK_WriteReg(R13, 0x20001000)  returns 0x00 (0000ms, 0383ms total)
T10EC 000:750 JLINK_WriteReg(R14, 0x20000001)  returns 0x00 (0000ms, 0383ms total)
T10EC 000:750 JLINK_WriteReg(R15, 0x2000006A)  returns 0x00 (0000ms, 0383ms total)
T10EC 000:750 JLINK_WriteReg(XPSR, 0x01000000)  returns 0x00 (0000ms, 0383ms total)
T10EC 000:750 JLINK_WriteReg(MSP, 0x20001000)  returns 0x00 (0000ms, 0383ms total)
T10EC 000:750 JLINK_WriteReg(PSP, 0x20001000)  returns 0x00 (0000ms, 0383ms total)
T10EC 000:750 JLINK_WriteReg(CFBP, 0x00000000)  returns 0x00 (0000ms, 0383ms total)
T10EC 000:750 JLINK_SetBPEx(Addr = 0x20000000, Type = 0xFFFFFFF2)  returns 0x00000010 (0000ms, 0383ms total)
T10EC 000:750 JLINK_Go() (0003ms, 0386ms total)
T10EC 000:753 JLINK_IsHalted() -- CPU_ReadMem(2 bytes @ 0x20000000)  returns TRUE (0004ms, 0390ms total)
T10EC 000:757 JLINK_ReadReg(R15)  returns 0x20000000 (0000ms, 0386ms total)
T10EC 000:757 JLINK_ClrBPEx(BPHandle = 0x00000010)  returns 0x00 (0000ms, 0386ms total)
T10EC 000:757 JLINK_ReadReg(R0)  returns 0x00000000 (0000ms, 0386ms total)
T10EC 000:822 JLINK_WriteMem(0x20000000, 0x0164 Bytes, ...) -- Data:  00 BE 0A E0 0D 78 2D 06 68 40 08 24 40 00 00 D3 ... -- CPU_WriteMem(356 bytes @ 0x20000000)  returns 0x164 (0004ms, 0390ms total)
T10EC 000:826 JLINK_WriteReg(R0, 0x08000000)  returns 0x00 (0000ms, 0390ms total)
T10EC 000:826 JLINK_WriteReg(R1, 0x044AA200)  returns 0x00 (0000ms, 0390ms total)
T10EC 000:826 JLINK_WriteReg(R2, 0x00000002)  returns 0x00 (0000ms, 0390ms total)
T10EC 000:826 JLINK_WriteReg(R3, 0x00000000)  returns 0x00 (0000ms, 0390ms total)
T10EC 000:826 JLINK_WriteReg(R4, 0x00000000)  returns 0x00 (0000ms, 0390ms total)
T10EC 000:826 JLINK_WriteReg(R5, 0x00000000)  returns 0x00 (0000ms, 0390ms total)
T10EC 000:826 JLINK_WriteReg(R6, 0x00000000)  returns 0x00 (0000ms, 0390ms total)
T10EC 000:826 JLINK_WriteReg(R7, 0x00000000)  returns 0x00 (0000ms, 0390ms total)
T10EC 000:826 JLINK_WriteReg(R8, 0x00000000)  returns 0x00 (0000ms, 0390ms total)
T10EC 000:826 JLINK_WriteReg(R9, 0x20000160)  returns 0x00 (0000ms, 0390ms total)
T10EC 000:826 JLINK_WriteReg(R10, 0x00000000)  returns 0x00 (0001ms, 0391ms total)
T10EC 000:827 JLINK_WriteReg(R11, 0x00000000)  returns 0x00 (0000ms, 0391ms total)
T10EC 000:827 JLINK_WriteReg(R12, 0x00000000)  returns 0x00 (0000ms, 0391ms total)
T10EC 000:827 JLINK_WriteReg(R13, 0x20001000)  returns 0x00 (0000ms, 0391ms total)
T10EC 000:827 JLINK_WriteReg(R14, 0x20000001)  returns 0x00 (0000ms, 0391ms total)
T10EC 000:827 JLINK_WriteReg(R15, 0x20000038)  returns 0x00 (0000ms, 0391ms total)
T10EC 000:827 JLINK_WriteReg(XPSR, 0x01000000)  returns 0x00 (0000ms, 0391ms total)
T10EC 000:827 JLINK_WriteReg(MSP, 0x20001000)  returns 0x00 (0000ms, 0391ms total)
T10EC 000:827 JLINK_WriteReg(PSP, 0x20001000)  returns 0x00 (0000ms, 0391ms total)
T10EC 000:827 JLINK_WriteReg(CFBP, 0x00000000)  returns 0x00 (0000ms, 0391ms total)
T10EC 000:827 JLINK_SetBPEx(Addr = 0x20000000, Type = 0xFFFFFFF2) -- CPU_ReadMem(2 bytes @ 0x20000000)  returns 0x00000011 (0002ms, 0393ms total)
T10EC 000:829 JLINK_Go() -- CPU_WriteMem(2 bytes @ 0x20000000) (0003ms, 0396ms total)
T10EC 000:832 JLINK_IsHalted() -- CPU_ReadMem(2 bytes @ 0x20000000)  returns TRUE (0005ms, 0401ms total)
T10EC 000:837 JLINK_ReadReg(R15)  returns 0x20000000 (0000ms, 0396ms total)
T10EC 000:837 JLINK_ClrBPEx(BPHandle = 0x00000011)  returns 0x00 (0000ms, 0396ms total)
T10EC 000:837 JLINK_ReadReg(R0)  returns 0x00000000 (0000ms, 0396ms total)
T10EC 000:837 JLINK_WriteMem(0x20000164, 0x0400 Bytes, ...) -- Data:  A8 08 00 20 1D 27 00 08 25 27 00 08 27 27 00 08 ... -- CPU_WriteMem(1024 bytes @ 0x20000164)  returns 0x400 (0008ms, 0404ms total)
T10EC 000:845 JLINK_WriteReg(R0, 0x08000000)  returns 0x00 (0000ms, 0404ms total)
T10EC 000:845 JLINK_WriteReg(R1, 0x00000400)  returns 0x00 (0000ms, 0404ms total)
T10EC 000:845 JLINK_WriteReg(R2, 0x20000164)  returns 0x00 (0000ms, 0404ms total)
T10EC 000:845 JLINK_WriteReg(R3, 0x00000000)  returns 0x00 (0000ms, 0404ms total)
T10EC 000:845 JLINK_WriteReg(R4, 0x00000000)  returns 0x00 (0000ms, 0404ms total)
T10EC 000:845 JLINK_WriteReg(R5, 0x00000000)  returns 0x00 (0000ms, 0404ms total)
T10EC 000:845 JLINK_WriteReg(R6, 0x00000000)  returns 0x00 (0000ms, 0404ms total)
T10EC 000:845 JLINK_WriteReg(R7, 0x00000000)  returns 0x00 (0000ms, 0404ms total)
T10EC 000:845 JLINK_WriteReg(R8, 0x00000000)  returns 0x00 (0000ms, 0404ms total)
T10EC 000:845 JLINK_WriteReg(R9, 0x20000160)  returns 0x00 (0000ms, 0404ms total)
T10EC 000:845 JLINK_WriteReg(R10, 0x00000000)  returns 0x00 (0000ms, 0404ms total)
T10EC 000:845 JLINK_WriteReg(R11, 0x00000000)  returns 0x00 (0000ms, 0404ms total)
T10EC 000:845 JLINK_WriteReg(R12, 0x00000000)  returns 0x00 (0001ms, 0405ms total)
T10EC 000:846 JLINK_WriteReg(R13, 0x20001000)  returns 0x00 (0000ms, 0405ms total)
T10EC 000:846 JLINK_WriteReg(R14, 0x20000001)  returns 0x00 (0000ms, 0405ms total)
T10EC 000:846 JLINK_WriteReg(R15, 0x200000F4)  returns 0x00 (0000ms, 0405ms total)
T10EC 000:846 JLINK_WriteReg(XPSR, 0x01000000)  returns 0x00 (0000ms, 0405ms total)
T10EC 000:846 JLINK_WriteReg(MSP, 0x20001000)  returns 0x00 (0000ms, 0405ms total)
T10EC 000:846 JLINK_WriteReg(PSP, 0x20001000)  returns 0x00 (0000ms, 0405ms total)
T10EC 000:846 JLINK_WriteReg(CFBP, 0x00000000)  returns 0x00 (0000ms, 0405ms total)
T10EC 000:846 JLINK_SetBPEx(Addr = 0x20000000, Type = 0xFFFFFFF2)  returns 0x00000012 (0000ms, 0405ms total)
T10EC 000:846 JLINK_Go() (0002ms, 0407ms total)
T10EC 000:848 JLINK_IsHalted()  returns FALSE (0001ms, 0408ms total)
T10EC 000:863 JLINK_IsHalted()  returns FALSE (0002ms, 0409ms total)
T10EC 000:869 JLINK_IsHalted()  returns FALSE (0001ms, 0408ms total)
T10EC 000:872 JLINK_IsHalted()  returns FALSE (0002ms, 0409ms total)
T10EC 000:876 JLINK_IsHalted()  returns FALSE (0001ms, 0408ms total)
T10EC 000:879 JLINK_IsHalted() -- CPU_ReadMem(2 bytes @ 0x20000000)  returns TRUE (0005ms, 0412ms total)
T10EC 000:884 JLINK_ReadReg(R15)  returns 0x20000000 (0000ms, 0407ms total)
T10EC 000:884 JLINK_ClrBPEx(BPHandle = 0x00000012)  returns 0x00 (0000ms, 0407ms total)
T10EC 000:884 JLINK_ReadReg(R0)  returns 0x00000000 (0000ms, 0407ms total)
T10EC 000:885 JLINK_WriteMem(0x20000164, 0x0400 Bytes, ...) -- Data:  10 BD 70 B5 05 46 0E 46 00 24 0B E0 00 BF 40 21 ... -- CPU_WriteMem(1024 bytes @ 0x20000164)  returns 0x400 (0007ms, 0414ms total)
T10EC 000:892 JLINK_WriteReg(R0, 0x08000400)  returns 0x00 (0000ms, 0414ms total)
T10EC 000:892 JLINK_WriteReg(R1, 0x00000400)  returns 0x00 (0000ms, 0414ms total)
T10EC 000:892 JLINK_WriteReg(R2, 0x20000164)  returns 0x00 (0000ms, 0414ms total)
T10EC 000:892 JLINK_WriteReg(R3, 0x00000000)  returns 0x00 (0000ms, 0414ms total)
T10EC 000:892 JLINK_WriteReg(R4, 0x00000000)  returns 0x00 (0000ms, 0414ms total)
T10EC 000:892 JLINK_WriteReg(R5, 0x00000000)  returns 0x00 (0000ms, 0414ms total)
T10EC 000:892 JLINK_WriteReg(R6, 0x00000000)  returns 0x00 (0000ms, 0414ms total)
